Frequency(Hz),S21_Magnitude,S21_Phase(rad)
1000000000.0,1.3305991942518897e-05,1.689666308077455
1001810856.0822129,1.305554278676481e-05,1.6897344955910634
1003621712.1644257,1.2805093631010741e-05,1.689802683104672
1005432568.2466387,1.2554644475256655e-05,1.6898708706182803
1007243424.3288515,1.2304195319502586e-05,1.689939058131889
1009054280.4110644,1.2053746163748501e-05,1.6900072456454973
1010865136.4932772,1.181505137291065e-05,1.6900745772702226
1012675992.5754901,1.1590723028081494e-05,1.6901408628085353
1014486848.6577029,1.1366394683252353e-05,1.6902071483468477
1016297704.7399158,1.1142066338423196e-05,1.6902734338851604
1018108560.8221287,1.0917737993594055e-05,1.690339719423473
1019919416.9043416,1.0693409648764899e-05,1.6904060049617857
1021730272.9865544,1.0490143013080495e-05,1.6904706410207362
1023541129.0687673,1.0289216567301048e-05,1.690535093804202
1025351985.1509801,1.0088290121521615e-05,1.6905995465876678
1027162841.233193,9.887363675742169e-06,1.6906639993711337
1028973697.3154058,9.686437229962734e-06,1.6907284521545995
1030784553.3976188,9.492848640369313e-06,1.6907922866220408
1032595409.4798316,9.312887497978521e-06,1.6908549727882936
1034406265.5620445,9.132926355587719e-06,1.6909176589545465
1036217121.6442573,8.952965213196927e-06,1.6909803451207992
1038027977.7264702,8.773004070806125e-06,1.691043031287052
1039838833.808683,8.593042928415333e-06,1.6911057174533048
1041649689.890896,8.428107226388324e-06,1.6911670408987187
1043460545.9731088,8.266927884452275e-06,1.6912280236639232
1045271402.0553217,8.105748542516216e-06,1.6912890064291275
1047082258.1375345,7.944569200580165e-06,1.691349989194332
1048893114.2197474,7.783389858644106e-06,1.6914109719595363
1050703970.3019602,7.660521686115286e-06,1.6914607162333835
1052514826.3841732,7.652587021808144e-06,1.6914767450331594
1054325682.466386,7.644652357501003e-06,1.691492773832935
1056136538.5485989,7.636717693193862e-06,1.691508802632711
1057947394.6308117,7.62878302888672e-06,1.6915248314324869
1059758250.7130246,7.6208483645795785e-06,1.6915408602322626
1061569106.7952374,7.612913700272438e-06,1.6915568890320385
1063379962.8774503,7.604979035965296e-06,1.6915729178318142
1065190818.9596632,7.597044371658155e-06,1.69158894663159
1067001675.0418761,7.5891097073510135e-06,1.6916049754313658
1068812531.1240889,7.581175043043873e-06,1.6916210042311417
1070623387.2063018,7.573240378736731e-06,1.6916370330309174
1072434243.2885146,7.565305714429589e-06,1.6916530618306933
1074245099.3707275,7.557371050122448e-06,1.691669090630469
1076055955.4529405,7.549436385815306e-06,1.691685119430245
1077866811.5351532,7.541501721508166e-06,1.6917011482300206
1079677667.617366,7.533567057201024e-06,1.6917171770297965
1081488523.699579,7.5256323928938825e-06,1.6917332058295722
1083299379.781792,7.517697728586741e-06,1.6917492346293481
1085110235.8640046,7.5097630642796e-06,1.6917652634291238
1086921091.9462175,7.501828399972458e-06,1.6917812922288997
1088731948.0284305,7.493893735665317e-06,1.6917973210286756
1090542804.1106434,7.485959071358175e-06,1.6918133498284513
1092353660.192856,7.478024407051035e-06,1.6918293786282272
1094164516.275069,7.470089742743893e-06,1.691845407428003
1095975372.357282,7.4621550784367516e-06,1.6918614362277788
1097786228.4394948,7.45422041412961e-06,1.6918774650275545
1099597084.5217075,7.446285749822469e-06,1.6918934938273305
1101407940.6039205,7.438351085515327e-06,1.6919095226271061
1103218796.6861334,7.430416421208186e-06,1.691925551426882
1105029652.7683463,7.422481756901044e-06,1.6919415802266577
1106840508.8505592,7.414547092593903e-06,1.6919576090264337
1108651364.932772,7.406612428286762e-06,1.6919736378262094
1110462221.0149848,7.398677763979621e-06,1.6919896666259853
1112273077.0971978,7.390743099672479e-06,1.692005695425761
1114083933.1794105,7.382808435365338e-06,1.6920217242255369
1115894789.2616234,7.374873771058196e-06,1.6920377530253128
1117705645.3438363,7.366939106751055e-06,1.6920537818250885
1119516501.4260492,7.359004442443914e-06,1.6920698106248644
1121327357.5082622,7.351069778136772e-06,1.69208583942464
1123138213.5904748,7.343135113829631e-06,1.692101868224416
1124949069.6726878,7.33520044952249e-06,1.6921178970241917
1126759925.7549007,7.327265785215348e-06,1.6921339258239676
1128570781.8371134,7.319331120908207e-06,1.6921499546237433
1130381637.9193263,7.3113964566010654e-06,1.6921659834235192
1132192494.0015392,7.303461792293925e-06,1.692182012223295
1134003350.0837522,7.295527127986783e-06,1.6921980410230708
1135814206.165965,7.287592463679641e-06,1.6922140698228465
1137625062.2481778,7.2796577993725e-06,1.6922300986226224
1139435918.3303907,7.271723135065359e-06,1.692246127422398
1141246774.4126036,7.263788470758217e-06,1.692262156222174
1143057630.4948163,7.255853806451076e-06,1.69227818502195
1144868486.5770292,7.2479191421439345e-06,1.6922942138217256
1146679342.6592422,7.239984477836793e-06,1.6923102426215015
1148490198.741455,7.232049813529652e-06,1.6923262714212772
1150301054.823668,7.22411514922251e-06,1.6923423002210531
1152111910.9058807,7.2161804849153694e-06,1.6923583290208288
1153922766.9880936,7.208245820608228e-06,1.6923743578206047
1155733623.0703065,7.200311156301086e-06,1.6923903866203804
1157544479.1525195,7.192376491993944e-06,1.6924064154201564
1159355335.2347322,7.1844418276868035e-06,1.692422444219932
1161166191.316945,7.176507163379663e-06,1.692438473019708
1162977047.399158,7.168572499072521e-06,1.6924545018194836
1164787903.481371,7.160637834765379e-06,1.6924705306192596
1166598759.5635836,7.1527031704582385e-06,1.6924865594190353
1168409615.6457965,7.144768506151097e-06,1.6925025882188112
1170220471.7280095,7.136833841843955e-06,1.692518617018587
1172031327.8102224,7.128899177536813e-06,1.6925346458183628
1173842183.892435,7.120964513229673e-06,1.6925506746181387
1175653039.974648,7.113029848922532e-06,1.6925667034179144
1177463896.056861,7.10509518461539e-06,1.6925827322176903
1179274752.1390738,7.097160520308248e-06,1.692598761017466
1181085608.2212865,7.0892258560011075e-06,1.692614789817242
1182896464.3034995,7.081291191693966e-06,1.6926308186170176
1184707320.3857124,7.073356527386824e-06,1.6926468474167935
1186518176.4679253,7.0654218630796824e-06,1.6926628762165692
1188329032.550138,7.057487198772542e-06,1.692678905016345
1190139888.632351,7.049552534465401e-06,1.6926949338161208
1191950744.7145638,7.041617870158259e-06,1.6927109626158967
1193761600.7967768,7.033683205851117e-06,1.6927269914156724
1195572456.8789895,7.0257485415439766e-06,1.6927430202154483
1197383312.9612024,7.017813877236835e-06,1.6927590490152242
1199194169.0434153,7.009879212929693e-06,1.692775077815
1201005025.1256282,7.0019445486225515e-06,1.6927911066147758
1202815881.207841,6.9940098843154115e-06,1.6928071354145515
1204626737.2900538,6.98607522000827e-06,1.6928231642143274
1206437593.3722668,6.978140555701128e-06,1.6928391930141031
1208248449.4544797,6.9702058913939864e-06,1.692855221813879
1210059305.5366926,6.962271227086845e-06,1.6928712506136547
1211870161.6189053,6.954336562779704e-06,1.6928872794134306
1213681017.7011182,6.946401898472562e-06,1.6929033082132063
1215491873.7833312,6.9384672341654205e-06,1.6929193370129823
1217302729.8655438,6.9305325698582805e-06,1.692935365812758
1219113585.9477568,6.922597905551139e-06,1.6929513946125339
1220924442.0299697,6.914663241243997e-06,1.6929674234123095
1222735298.1121826,6.9067285769368555e-06,1.6929834522120855
1224546154.1943955,6.898793912629714e-06,1.6929994810118612
1226357010.2766082,6.890859248322573e-06,1.693015509811637
1228167866.3588212,6.882924584015431e-06,1.693031538611413
1229978722.441034,6.87498991970829e-06,1.6930475674111887
1231789578.5232468,6.86705525540115e-06,1.6930635962109646
1233600434.6054597,6.859120591094008e-06,1.6930796250107403
1235411290.6876726,6.851185926786866e-06,1.6930956538105162
1237222146.7698855,6.8432512624797245e-06,1.6931116826102919
1239033002.8520985,6.835316598172583e-06,1.6931277114100678
1240843858.9343112,6.827381933865442e-06,1.6931437402098435
1242654715.016524,6.8194472695583e-06,1.6931597690096194
1244465571.098737,6.811512605251159e-06,1.693175797809395
1246276427.1809497,6.803577940944019e-06,1.693191826609171
1248087283.2631626,6.795643276636877e-06,1.6932078554089467
1249898139.3453755,6.787708612329735e-06,1.6932238842087226
1251708995.4275885,6.7797739480225936e-06,1.6932399130084983
1253519851.5098014,6.771839283715452e-06,1.6932559418082742
1255330707.592014,6.763904619408311e-06,1.6932719706080501
1257141563.674227,6.755969955101169e-06,1.6932879994078258
1258952419.75644,6.748035290794028e-06,1.6933040282076017
1260763275.8386526,6.740100626486888e-06,1.6933200570073774
1262574131.9208655,6.732165962179746e-06,1.6933360858071533
1264384988.0030785,6.724231297872604e-06,1.693352114606929
1266195844.0852914,6.716296633565463e-06,1.693368143406705
1268006700.1675043,6.708361969258321e-06,1.6933841722064806
1269817556.249717,6.70042730495118e-06,1.6934002010062565
1271628412.33193,6.692492640644038e-06,1.6934162298060322
1273439268.4141428,6.684557976336897e-06,1.6934322586058081
1275250124.4963555,6.676623312029757e-06,1.6934482874055838
1277060980.5785685,6.668688647722615e-06,1.6934643162053598
1278871836.6607814,6.660753983415473e-06,1.6934803450051354
1280682692.7429943,6.652819319108332e-06,1.6934963738049114
1282493548.8252072,6.64488465480119e-06,1.6935124026046873
1284304404.90742,6.636949990494049e-06,1.693528431404463
1286115260.9896328,6.6290153261869074e-06,1.6935444602042389
1287926117.0718458,6.621080661879767e-06,1.6935604890040146
1289736973.1540585,6.613145997572626e-06,1.6935765178037905
1291547829.2362714,6.605211333265484e-06,1.6935925466035662
1293358685.3184843,6.597276668958342e-06,1.693608575403342
1295169541.4006972,6.589342004651201e-06,1.6936246042031178
1296980397.4829102,6.581407340344059e-06,1.6936406330028937
1298791253.565123,6.573472676036917e-06,1.6936566618026694
1300602109.6473358,6.565538011729777e-06,1.6936726906024453
1302412965.7295487,6.557603347422635e-06,1.693688719402221
1304223821.8117616,6.549668683115494e-06,1.693704748201997
1306034677.8939743,6.541734018808353e-06,1.6937207770017726
1307845533.9761872,6.5337993545012114e-06,1.6937368058015485
1309656390.0584002,6.52586469019407e-06,1.6937528346013244
1311467246.140613,6.517930025886928e-06,1.6937688634011
1313278102.222826,6.509995361579786e-06,1.693784892200876
1315088958.3050387,6.5020606972726455e-06,1.6938009210006517
1316899814.3872516,6.494126032965505e-06,1.6938169498004276
1318710670.4694645,6.486191368658362e-06,1.6938329786002033
1320521526.5516772,6.478256704351222e-06,1.6938490073999792
1322332382.6338902,6.4703220400440805e-06,1.693865036199755
1324143238.716103,6.462387375736939e-06,1.6938810649995308
1325954094.798316,6.454452711429797e-06,1.6938970937993065
1327764950.880529,6.446518047122655e-06,1.6939131225990824
1329575806.9627416,6.438583382815515e-06,1.6939291513988581
1331386663.0449545,6.430648718508373e-06,1.693945180198634
1333197519.1271675,6.422714054201232e-06,1.6939612089984097
1335008375.2093801,6.414779389894091e-06,1.6939772377981857
1336819231.291593,6.4068447255869495e-06,1.6939932665979613
1338630087.373806,6.398910061279808e-06,1.6940092953977373
1340440943.456019,6.390975396972666e-06,1.6940253241975132
1342251799.5382318,6.3830407326655244e-06,1.6940413529972889
1344062655.6204445,6.375106068358384e-06,1.6940573817970648
1345873511.7026575,6.367171404051243e-06,1.6940734105968405
1347684367.7848704,6.359236739744101e-06,1.6940894393966164
1349495223.867083,6.35130207543696e-06,1.694105468196392
1351306079.949296,6.3433674111298186e-06,1.694121496996168
1353116936.031509,6.335432746822677e-06,1.6941375257959437
1354927792.1137218,6.327498082515535e-06,1.6941535545957196
1356738648.1959348,6.3195634182083935e-06,1.6941695833954953
1358549504.2781475,6.3116287539012535e-06,1.6941856121952712
1360360360.3603604,6.303694089594111e-06,1.6942016409950469
1362171216.4425733,6.29575942528697e-06,1.6942176697948228
1363982072.524786,6.287824760979829e-06,1.6942336985945985
1365792928.606999,6.279890096672688e-06,1.6942497273943744
1367603784.6892118,6.271955432365546e-06,1.6942657561941503
1369414640.7714248,6.264020768058404e-06,1.694281784993926
1371225496.8536377,6.2560861037512625e-06,1.694297813793702
1373036352.9358504,6.248151439444122e-06,1.6943138425934776
1374847209.0180633,6.240216775136981e-06,1.6943298713932535
1376658065.1002762,6.232282110829839e-06,1.6943459001930292
1378468921.182489,6.224347446522698e-06,1.6943619289928051
1380279777.2647018,6.216412782215557e-06,1.6943779577925808
1382090633.3469148,6.208478117908415e-06,1.6943939865923567
1383901489.4291277,6.200543453601273e-06,1.6944100153921324
1385712345.5113406,6.192608789294132e-06,1.6944260441919083
1387523201.5935533,6.184674124986992e-06,1.694442072991684
1389334057.6757662,6.17673946067985e-06,1.69445810179146
1391144913.7579792,6.168804796372708e-06,1.6944741305912356
1392955769.8401918,6.160870132065567e-06,1.6944901593910116
1394766625.9224048,6.152935467758426e-06,1.6945061881907875
1396577482.0046177,6.145000803451284e-06,1.6945222169905632
1398388338.0868306,6.137066139144142e-06,1.694538245790339
1400199194.1690435,6.129131474837001e-06,1.6945542745901148
1402010050.2512562,6.12119681052986e-06,1.6945703033898907
1403820906.3334692,6.113262146222719e-06,1.6945863321896664
1405631762.415682,6.105327481915577e-06,1.6946023609894423
1407442618.497895,6.0973928176084356e-06,1.694618389789218
1409253474.5801077,6.089458153301295e-06,1.6946344185889939
1411064330.6623206,6.081523488994153e-06,1.6946504473887696
1412875186.7445335,6.073588824687011e-06,1.6946664761885455
1414686042.8267465,6.06565416037987e-06,1.6946825049883212
1416496898.9089594,6.057719496072728e-06,1.694698533788097
1418307754.991172,6.049784831765588e-06,1.6947145625878728
1420118611.073385,6.041850167458446e-06,1.6947305913876487
1421929467.155598,6.033915503151305e-06,1.6947466201874246
1423740323.2378106,6.025980838844164e-06,1.6947626489872003
1425551179.3200235,6.018046174537022e-06,1.6947786777869762
1427362035.4022365,6.01011151022988e-06,1.694794706586752
1429172891.4844494,6.002176845922739e-06,1.6948107353865278
1430983747.5666623,5.994242181615598e-06,1.6948267641863035
1432794603.648875,5.986307517308457e-06,1.6948427929860794
1434605459.731088,5.978372853001315e-06,1.6948588217858551
1436416315.8133008,5.970438188694174e-06,1.694874850585631
1438227171.8955135,5.962503524387033e-06,1.6948908793854067
1440038027.9777265,5.954568860079891e-06,1.6949069081851826
1441848884.0599394,5.9466341957727494e-06,1.6949229369849583
1443659740.1421523,5.938699531465609e-06,1.6949389657847342
1445470596.2243652,5.930764867158466e-06,1.69495499458451
1447281452.306578,5.922830202851326e-06,1.6949710233842858
1449092308.3887908,5.914895538544184e-06,1.6949870521840618
1450903164.4710038,5.906960874237043e-06,1.6950030809838375
1452714020.5532165,5.899026209929902e-06,1.6950191097836134
1454524876.6354294,5.89109154562276e-06,1.695035138583389
1456335732.7176423,5.8831568813156185e-06,1.695051167383165
1458146588.7998552,5.875222217008477e-06,1.6950671961829407
1459957444.8820682,5.867287552701336e-06,1.6950832249827166
1461768300.9642808,5.859352888394195e-06,1.6950992537824923
1463579157.0464938,5.8514182240870534e-06,1.6951152825822682
1465390013.1287067,5.843483559779912e-06,1.6951313113820439
1467200869.2109194,5.835548895472771e-06,1.6951473401818198
1469011725.2931323,5.827614231165629e-06,1.6951633689815955
1470822581.3753452,5.8196795668584875e-06,1.6951793977813714
1472633437.4575582,5.811744902551347e-06,1.695195426581147
1474444293.539771,5.803810238244204e-06,1.695211455380923
1476255149.6219838,5.795875573937064e-06,1.6952274841806987
1478066005.7041967,5.7879409096299225e-06,1.6952435129804746
1479876861.7864096,5.780006245322781e-06,1.6952595417802505
1481687717.8686223,5.77207158101564e-06,1.6952755705800262
1483498573.9508352,5.764136916708498e-06,1.6952915993798021
1485309430.0330482,5.756202252401357e-06,1.6953076281795778
1487120286.115261,5.748267588094215e-06,1.6953236569793537
1488931142.197474,5.740332923787074e-06,1.6953396857791294
1490741998.2796867,5.732398259479933e-06,1.6953557145789053
1492552854.3618996,5.7244635951727915e-06,1.695371743378681
1494363710.4441125,5.71652893086565e-06,1.695387772178457
1496174566.5263252,5.708594266558509e-06,1.6954038009782326
1497985422.6085382,5.700659602251368e-06,1.6954198297780085
1499796278.690751,5.692724937944226e-06,1.6954358585777842
1501607134.772964,5.684790273637085e-06,1.6954518873775601
1503417990.855177,5.676855609329942e-06,1.6954679161773358
1505228846.9373896,5.668920945022802e-06,1.6954839449771117
1507039703.0196025,5.6609862807156606e-06,1.6954999737768877
1508850559.1018155,5.653051616408519e-06,1.6955160025766634
1510661415.1840281,5.645116952101379e-06,1.6955320313764393
1512472271.266241,5.637182287794236e-06,1.695548060176215
1514283127.348454,5.6292476234870955e-06,1.6955640889759909
1516093983.430667,5.621312959179953e-06,1.6955801177757666
1517904839.5128798,5.613378294872812e-06,1.6955961465755425
1519715695.5950925,5.605443630565671e-06,1.6956121753753182
1521526551.6773055,5.59750896625853e-06,1.695628204175094
1523337407.7595184,5.589574301951388e-06,1.6956442329748698
1525148263.8417313,5.581639637644246e-06,1.6956602617746457
1526959119.923944,5.573704973337106e-06,1.6956762905744214
1528769976.006157,5.565770309029964e-06,1.6956923193741973
1530580832.0883698,5.557835644722823e-06,1.695708348173973
1532391688.1705828,5.54990098041568e-06,1.695724376973749
1534202544.2527957,5.5419663161085395e-06,1.6957404057735248
1536013400.3350084,5.534031651801399e-06,1.6957564345733005
1537824256.4172213,5.526096987494257e-06,1.6957724633730764
1539635112.499434,5.518162323187117e-06,1.695788492172852
1541445968.581647,5.5102276588799744e-06,1.695804520972628
1543256824.6638598,5.502292994572834e-06,1.6958205497724037
1545067680.7460728,5.494358330265691e-06,1.6958365785721796
1546878536.8282857,5.48642366595855e-06,1.6958526073719553
1548689392.9104986,5.478489001651408e-06,1.6958686361717312
1550500248.9927113,5.470554337344268e-06,1.695884664971507
1552311105.0749242,5.462619673037126e-06,1.6959006937712828
1554121961.157137,5.454685008729985e-06,1.6959167225710585
1555932817.2393498,5.446750344422844e-06,1.6959327513708344
1557743673.3215628,5.438815680115702e-06,1.6959487801706101
1559554529.4037757,5.430881015808561e-06,1.695964808970386
1561365385.4859886,5.422946351501418e-06,1.695980837770162
1563176241.5682015,5.4150116871942776e-06,1.6959968665699376
1564987097.6504142,5.407077022887137e-06,1.6960128953697136
1566797953.7326272,5.399142358579995e-06,1.6960289241694892
1568608809.8148398,5.391207694272855e-06,1.6960449529692652
1570419665.8970528,5.3832730299657125e-06,1.6960609817690409
1572230521.9792657,5.375338365658572e-06,1.6960770105688168
1574041378.0614786,5.367403701351429e-06,1.6960930393685925
1575852234.1436915,5.359469037044288e-06,1.6961090681683684
1577663090.2259045,5.351534372737147e-06,1.696125096968144
1579473946.3081172,5.343599708430006e-06,1.69614112576792
1581284802.39033,5.335665044122864e-06,1.6961571545676957
1583095658.472543,5.327730379815722e-06,1.6961731833674716
1584906514.5547557,5.319795715508582e-06,1.6961892121672473
1586717370.6369686,5.31186105120144e-06,1.6962052409670232
1588528226.7191815,5.303926386894299e-06,1.6962212697667989
1590339082.8013945,5.295991722587157e-06,1.6962372985665748
1592149938.8836074,5.288057058280016e-06,1.6962533273663507
1593960794.9658203,5.280122393972874e-06,1.6962693561661264
1595771651.048033,5.272187729665733e-06,1.6962853849659023
1597582507.130246,5.2642530653585914e-06,1.696301413765678
1599393363.2124586,5.256318401051451e-06,1.696317442565454
1601204219.2946715,5.24838373674431e-06,1.6963334713652296
1603015075.3768845,5.240449072437167e-06,1.6963495001650055
1604825931.4590974,5.232514408130026e-06,1.6963655289647812
