Frequency(Hz),S21_Magnitude,S21_Phase(rad)
1000000000.0,9.598361593825172e-07,2.57313802314418
1001810856.0822129,9.380554307519384e-07,2.573294020295751
1003621712.1644257,9.16274702121361e-07,2.573450017447322
1005432568.2466387,8.944939734907822e-07,2.573606014598893
1007243424.3288515,8.727132448602048e-07,2.573762011750464
1009054280.4110644,8.509325162296261e-07,2.573918008902035
1010865136.4932772,8.303839085184128e-07,2.5740720983782714
1012675992.5754901,8.113412263753101e-07,2.5742238562513204
1014486848.6577029,7.922985442322086e-07,2.5743756141243694
1016297704.7399158,7.732558620891058e-07,2.574527371997418
1018108560.8221287,7.542131799460043e-07,2.574679129870467
1019919416.9043416,7.351704978029016e-07,2.574830887743516
1021730272.9865544,7.182829493492355e-07,2.5749789647708625
1023541129.0687673,7.016348601943945e-07,2.575126632815353
1025351985.1509801,6.849867710395546e-07,2.5752743008598435
1027162841.233193,6.683386818847136e-07,2.5754219689043345
1028973697.3154058,6.516905927298736e-07,2.575569636948825
1030784553.3976188,6.357754423864913e-07,2.5757159236170257
1032595409.4798316,6.212214641215334e-07,2.575859644872117
1034406265.5620445,6.066674858565744e-07,2.576003366127208
1036217121.6442573,5.921135075916164e-07,2.5761470873822994
1038027977.7264702,5.775595293266575e-07,2.5762908086373906
1039838833.808683,5.630055510616995e-07,2.576434529892482
1041649689.890896,5.49916565009501e-07,2.5765752032758025
1043460545.9731088,5.371938270104935e-07,2.5767151146911806
1045271402.0553217,5.244710890114851e-07,2.5768550261065593
1047082258.1375345,5.117483510124775e-07,2.5769949375219374
1048893114.2197474,4.990256130134692e-07,2.5771348489373156
1050703970.3019602,4.89356842221191e-07,2.5772491273180638
1052514826.3841732,4.888499730490998e-07,2.5772865065949206
1054325682.466386,4.883431038770087e-07,2.577323885871778
1056136538.5485989,4.878362347049176e-07,2.577361265148635
1057947394.6308117,4.873293655328265e-07,2.577398644425492
1059758250.7130246,4.868224963607354e-07,2.5774360237023495
1061569106.7952374,4.863156271886443e-07,2.5774734029792064
1063379962.8774503,4.858087580165532e-07,2.5775107822560637
1065190818.9596632,4.853018888444621e-07,2.5775481615329205
1067001675.0418761,4.84795019672371e-07,2.577585540809778
1068812531.1240889,4.842881505002799e-07,2.577622920086635
1070623387.2063018,4.837812813281888e-07,2.577660299363492
1072434243.2885146,4.832744121560977e-07,2.5776976786403494
1074245099.3707275,4.827675429840066e-07,2.5777350579172063
1076055955.4529405,4.822606738119155e-07,2.5777724371940636
1077866811.5351532,4.817538046398245e-07,2.5778098164709204
1079677667.617366,4.812469354677333e-07,2.5778471957477778
1081488523.699579,4.807400662956422e-07,2.577884575024635
1083299379.781792,4.802331971235511e-07,2.577921954301492
1085110235.8640046,4.7972632795146e-07,2.5779593335783493
1086921091.9462175,4.792194587793689e-07,2.577996712855206
1088731948.0284305,4.787125896072778e-07,2.5780340921320635
1090542804.1106434,4.782057204351867e-07,2.578071471408921
1092353660.192856,4.776988512630956e-07,2.5781088506857777
1094164516.275069,4.771919820910045e-07,2.578146229962635
1095975372.357282,4.766851129189134e-07,2.578183609239492
1097786228.4394948,4.761782437468223e-07,2.578220988516349
1099597084.5217075,4.756713745747312e-07,2.5782583677932065
1101407940.6039205,4.751645054026401e-07,2.5782957470700634
1103218796.6861334,4.7465763623054897e-07,2.5783331263469207
1105029652.7683463,4.7415076705845784e-07,2.5783705056237776
1106840508.8505592,4.736438978863667e-07,2.578407884900635
1108651364.932772,4.731370287142757e-07,2.5784452641774918
1110462221.0149848,4.726301595421846e-07,2.578482643454349
1112273077.0971978,4.7212329037009346e-07,2.5785200227312064
1114083933.1794105,4.716164211980024e-07,2.5785574020080633
1115894789.2616234,4.7110955202591127e-07,2.5785947812849206
1117705645.3438363,4.7060268285382015e-07,2.5786321605617775
1119516501.4260492,4.700958136817291e-07,2.578669539838635
1121327357.5082622,4.6958894450963796e-07,2.578706919115492
1123138213.5904748,4.690820753375469e-07,2.578744298392349
1124949069.6726878,4.6857520616545577e-07,2.5787816776692063
1126759925.7549007,4.6806833699336465e-07,2.578819056946063
1128570781.8371134,4.675614678212736e-07,2.5788564362229205
1130381637.9193263,4.6705459864918246e-07,2.578893815499778
1132192494.0015392,4.665477294770914e-07,2.5789311947766347
1134003350.0837522,4.6604086030500026e-07,2.578968574053492
1135814206.165965,4.6553399113290914e-07,2.579005953330349
1137625062.2481778,4.650271219608181e-07,2.579043332607206
1139435918.3303907,4.6452025278872695e-07,2.579080711884063
1141246774.4126036,4.6401338361663583e-07,2.5791180911609204
1143057630.4948163,4.635065144445448e-07,2.5791554704377777
1144868486.5770292,4.629996452724537e-07,2.5791928497146346
1146679342.6592422,4.6249277610036257e-07,2.579230228991492
1148490198.741455,4.6198590692827145e-07,2.5792676082683488
1150301054.823668,4.6147903775618033e-07,2.579304987545206
1152111910.9058807,4.6097216858408926e-07,2.5793423668220634
1153922766.9880936,4.6046529941199814e-07,2.5793797460989203
1155733623.0703065,4.59958430239907e-07,2.5794171253757776
1157544479.1525195,4.5945156106781595e-07,2.5794545046526345
1159355335.2347322,4.589446918957249e-07,2.579491883929492
1161166191.316945,4.5843782272363375e-07,2.579529263206349
1162977047.399158,4.5793095355154263e-07,2.579566642483206
1164787903.481371,4.574240843794515e-07,2.5796040217600633
1166598759.5635836,4.5691721520736044e-07,2.57964140103692
1168409615.6457965,4.564103460352693e-07,2.5796787803137775
1170220471.7280095,4.5590347686317825e-07,2.579716159590635
1172031327.8102224,4.5539660769108713e-07,2.5797535388674917
1173842183.892435,4.5488973851899606e-07,2.579790918144349
1175653039.974648,4.5438286934690494e-07,2.579828297421206
1177463896.056861,4.538760001748138e-07,2.579865676698063
1179274752.1390738,4.533691310027227e-07,2.57990305597492
1181085608.2212865,4.528622618306317e-07,2.5799404352517774
1182896464.3034995,4.5235539265854056e-07,2.5799778145286347
1184707320.3857124,4.5184852348644944e-07,2.5800151938054916
1186518176.4679253,4.513416543143583e-07,2.580052573082349
1188329032.550138,4.5083478514226724e-07,2.580089952359206
1190139888.632351,4.503279159701761e-07,2.580127331636063
1191950744.7145638,4.49821046798085e-07,2.5801647109129204
1193761600.7967768,4.4931417762599393e-07,2.5802020901897773
1195572456.8789895,4.4880730845390286e-07,2.5802394694666346
1197383312.9612024,4.4830043928181174e-07,2.5802768487434915
1199194169.0434153,4.477935701097206e-07,2.580314228020349
1201005025.1256282,4.472867009376295e-07,2.580351607297206
1202815881.207841,4.4677983176553843e-07,2.580388986574063
1204626737.2900538,4.462729625934473e-07,2.5804263658509203
1206437593.3722668,4.457660934213562e-07,2.580463745127777
1208248449.4544797,4.452592242492651e-07,2.5805011244046345
1210059305.5366926,4.44752355077174e-07,2.5805385036814914
1211870161.6189053,4.442454859050829e-07,2.5805758829583487
1213681017.7011182,4.437386167329918e-07,2.580613262235206
1215491873.7833312,4.432317475609007e-07,2.580650641512063
1217302729.8655438,4.4272487838880967e-07,2.5806880207889202
1219113585.9477568,4.4221800921671854e-07,2.580725400065777
1220924442.0299697,4.417111400446274e-07,2.5807627793426344
1222735298.1121826,4.412042708725363e-07,2.5808001586194917
1224546154.1943955,4.406974017004452e-07,2.5808375378963486
1226357010.2766082,4.401905325283541e-07,2.580874917173206
1228167866.3588212,4.39683663356263e-07,2.580912296450063
1229978722.441034,4.3917679418417187e-07,2.58094967572692
1231789578.5232468,4.3866992501208085e-07,2.5809870550037775
1233600434.6054597,4.3816305583998973e-07,2.5810244342806343
1235411290.6876726,4.376561866678986e-07,2.5810618135574916
1237222146.7698855,4.371493174958075e-07,2.5810991928343485
1239033002.8520985,4.3664244832371636e-07,2.581136572111206
1240843858.9343112,4.361355791516253e-07,2.5811739513880627
1242654715.016524,4.3562870997953417e-07,2.58121133066492
1244465571.098737,4.3512184080744305e-07,2.5812487099417774
1246276427.1809497,4.3461497163535203e-07,2.5812860892186342
1248087283.2631626,4.341081024632609e-07,2.5813234684954915
1249898139.3453755,4.336012332911698e-07,2.5813608477723484
1251708995.4275885,4.3309436411907867e-07,2.5813982270492057
1253519851.5098014,4.3258749494698755e-07,2.581435606326063
1255330707.592014,4.3208062577489653e-07,2.58147298560292
1257141563.674227,4.315737566028054e-07,2.5815103648797773
1258952419.75644,4.310668874307143e-07,2.581547744156634
1260763275.8386526,4.305600182586232e-07,2.5815851234334914
1262574131.9208655,4.300531490865321e-07,2.5816225027103488
1264384988.0030785,4.29546279914441e-07,2.5816598819872056
1266195844.0852914,4.2903941074234985e-07,2.581697261264063
1268006700.1675043,4.285325415702588e-07,2.58173464054092
1269817556.249717,4.280256723981677e-07,2.581772019817777
1271628412.33193,4.275188032260766e-07,2.581809399094634
1273439268.4141428,4.2701193405398547e-07,2.5818467783714913
1275250124.4963555,4.265050648818944e-07,2.5818841576483487
1277060980.5785685,4.259981957098033e-07,2.5819215369252055
1278871836.6607814,4.2549132653771216e-07,2.581958916202063
1280682692.7429943,4.2498445736562104e-07,2.5819962954789197
1282493548.8252072,4.244775881935299e-07,2.582033674755777
1284304404.90742,4.239707190214389e-07,2.5820710540326344
1286115260.9896328,4.234638498493478e-07,2.5821084333094912
1287926117.0718458,4.2295698067725665e-07,2.5821458125863486
1289736973.1540585,4.2245011150516564e-07,2.5821831918632054
1291547829.2362714,4.219432423330745e-07,2.5822205711400628
1293358685.3184843,4.214363731609834e-07,2.58225795041692
1295169541.4006972,4.2092950398889227e-07,2.582295329693777
1296980397.4829102,4.2042263481680115e-07,2.5823327089706343
1298791253.565123,4.1991576564471003e-07,2.582370088247491
1300602109.6473358,4.1940889647261896e-07,2.5824074675243485
1302412965.7295487,4.1890202730052784e-07,2.5824448468012053
1304223821.8117616,4.183951581284367e-07,2.5824822260780627
1306034677.8939743,4.178882889563457e-07,2.58251960535492
1307845533.9761872,4.173814197842546e-07,2.582556984631777
1309656390.0584002,4.1687455061216346e-07,2.582594363908634
1311467246.140613,4.1636768144007234e-07,2.582631743185491
1313278102.222826,4.158608122679812e-07,2.5826691224623484
1315088958.3050387,4.1535394309589014e-07,2.5827065017392057
1316899814.3872516,4.14847073923799e-07,2.5827438810160626
1318710670.4694645,4.143402047517079e-07,2.58278126029292
1320521526.5516772,4.138333355796169e-07,2.5828186395697768
1322332382.6338902,4.1332646640752576e-07,2.582856018846634
1324143238.716103,4.1281959723543464e-07,2.5828933981234914
1325954094.798316,4.123127280633435e-07,2.5829307774003483
1327764950.880529,4.118058588912524e-07,2.5829681566772056
1329575806.9627416,4.112989897191614e-07,2.5830055359540625
1331386663.0449545,4.1079212054707026e-07,2.58304291523092
1333197519.1271675,4.1028525137497914e-07,2.583080294507777
1335008375.2093801,4.0977838220288807e-07,2.583117673784634
1336819231.291593,4.0927151303079695e-07,2.5831550530614913
1338630087.373806,4.087646438587058e-07,2.583192432338348
1340440943.456019,4.082577746866147e-07,2.5832298116152055
1342251799.5382318,4.077509055145236e-07,2.5832671908920624
1344062655.6204445,4.0724403634243257e-07,2.5833045701689197
1345873511.7026575,4.0673716717034144e-07,2.583341949445777
1347684367.7848704,4.062302979982503e-07,2.583379328722634
1349495223.867083,4.0572342882615925e-07,2.583416707999491
1351306079.949296,4.0521655965406813e-07,2.583454087276348
1353116936.031509,4.04709690481977e-07,2.5834914665532054
1354927792.1137218,4.042028213098859e-07,2.5835288458300627
1356738648.1959348,4.0369595213779477e-07,2.5835662251069196
1358549504.2781475,4.0318908296570375e-07,2.583603604383777
1360360360.3603604,4.0268221379361263e-07,2.5836409836606338
1362171216.4425733,4.021753446215215e-07,2.583678362937491
1363982072.524786,4.016684754494305e-07,2.5837157422143484
1365792928.606999,4.0116160627733937e-07,2.5837531214912053
1367603784.6892118,4.0065473710524825e-07,2.5837905007680626
1369414640.7714248,4.001478679331571e-07,2.5838278800449195
1371225496.8536377,3.99640998761066e-07,2.583865259321777
1373036352.9358504,3.9913412958897493e-07,2.5839026385986337
1374847209.0180633,3.986272604168838e-07,2.583940017875491
1376658065.1002762,3.981203912447927e-07,2.5839773971523483
1378468921.182489,3.976135220727016e-07,2.584014776429205
1380279777.2647018,3.9710665290061055e-07,2.5840521557060625
1382090633.3469148,3.9659978372851943e-07,2.5840895349829194
1383901489.4291277,3.960929145564283e-07,2.5841269142597767
1385712345.5113406,3.955860453843372e-07,2.584164293536634
1387523201.5935533,3.950791762122461e-07,2.584201672813491
1389334057.6757662,3.94572307040155e-07,2.584239052090348
1391144913.7579792,3.940654378680639e-07,2.584276431367205
1392955769.8401918,3.9355856869597286e-07,2.5843138106440624
1394766625.9224048,3.9305169952388174e-07,2.5843511899209197
1396577482.0046177,3.925448303517906e-07,2.5843885691977766
1398388338.0868306,3.920379611796995e-07,2.584425948474634
1400199194.1690435,3.9153109200760837e-07,2.584463327751491
1402010050.2512562,3.9102422283551735e-07,2.584500707028348
1403820906.3334692,3.9051735366342623e-07,2.584538086305205
1405631762.415682,3.900104844913351e-07,2.5845754655820623
1407442618.497895,3.89503615319244e-07,2.5846128448589196
1409253474.5801077,3.889967461471529e-07,2.5846502241357765
1411064330.6623206,3.884898769750618e-07,2.584687603412634
1412875186.7445335,3.879830078029707e-07,2.5847249826894907
1414686042.8267465,3.8747613863087955e-07,2.584762361966348
1416496898.9089594,3.8696926945878843e-07,2.5847997412432053
1418307754.991172,3.864624002866974e-07,2.584837120520062
1420118611.073385,3.859555311146063e-07,2.5848744997969195
1421929467.155598,3.8544866194251517e-07,2.5849118790737764
1423740323.2378106,3.849417927704241e-07,2.5849492583506337
1425551179.3200235,3.84434923598333e-07,2.584986637627491
1427362035.4022365,3.8392805442624186e-07,2.585024016904348
1429172891.4844494,3.8342118525415074e-07,2.5850613961812052
1430983747.5666623,3.829143160820596e-07,2.585098775458062
1432794603.648875,3.824074469099686e-07,2.5851361547349194
1434605459.731088,3.819005777378775e-07,2.5851735340117763
1436416315.8133008,3.8139370856578636e-07,2.5852109132886336
1438227171.8955135,3.808868393936953e-07,2.585248292565491
1440038027.9777265,3.803799702216042e-07,2.585285671842348
1441848884.0599394,3.798731010495131e-07,2.585323051119205
1443659740.1421523,3.79366231877422e-07,2.585360430396062
1445470596.2243652,3.7885936270533085e-07,2.5853978096729193
1447281452.306578,3.783524935332398e-07,2.5854351889497766
1449092308.3887908,3.7784562436114866e-07,2.5854725682266335
1450903164.4710038,3.7733875518905754e-07,2.585509947503491
1452714020.5532165,3.7683188601696647e-07,2.5855473267803477
1454524876.6354294,3.7632501684487535e-07,2.585584706057205
1456335732.7176423,3.758181476727843e-07,2.5856220853340623
1458146588.7998552,3.7531127850069316e-07,2.5856594646109192
1459957444.8820682,3.7480440932860204e-07,2.5856968438877765
1461768300.9642808,3.7429754015651097e-07,2.5857342231646334
1463579157.0464938,3.7379067098441985e-07,2.5857716024414907
1465390013.1287067,3.732838018123287e-07,2.5858089817183476
1467200869.2109194,3.727769326402377e-07,2.585846360995205
1469011725.2931323,3.722700634681466e-07,2.5858837402720622
1470822581.3753452,3.7176319429605547e-07,2.585921119548919
1472633437.4575582,3.7125632512396434e-07,2.5859584988257764
1474444293.539771,3.707494559518732e-07,2.5859958781026333
1476255149.6219838,3.702425867797822e-07,2.5860332573794906
1478066005.7041967,3.697357176076911e-07,2.586070636656348
1479876861.7864096,3.6922884843559996e-07,2.586108015933205
1481687717.8686223,3.687219792635089e-07,2.586145395210062
1483498573.9508352,3.6821511009141777e-07,2.586182774486919
1485309430.0330482,3.6770824091932665e-07,2.5862201537637763
1487120286.115261,3.6720137174723553e-07,2.5862575330406337
1488931142.197474,3.666945025751444e-07,2.5862949123174905
1490741998.2796867,3.6618763340305334e-07,2.586332291594348
1492552854.3618996,3.656807642309622e-07,2.5863696708712047
1494363710.4441125,3.651738950588711e-07,2.586407050148062
1496174566.5263252,3.646670258867801e-07,2.586444429424919
1497985422.6085382,3.6416015671468896e-07,2.5864818087017762
1499796278.690751,3.6365328754259783e-07,2.5865191879786336
1501607134.772964,3.631464183705067e-07,2.5865565672554904
1503417990.855177,3.626395491984156e-07,2.5865939465323478
1505228846.9373896,3.621326800263246e-07,2.5866313258092046
1507039703.0196025,3.6162581085423345e-07,2.586668705086062
1508850559.1018155,3.6111894168214233e-07,2.5867060843629193
1510661415.1840281,3.6061207251005126e-07,2.586743463639776
1512472271.266241,3.601052033379602e-07,2.5867808429166335
1514283127.348454,3.5959833416586907e-07,2.5868182221934903
1516093983.430667,3.5909146499377795e-07,2.5868556014703477
1517904839.5128798,3.5858459582168683e-07,2.586892980747205
1519715695.5950925,3.5807772664959576e-07,2.586930360024062
1521526551.6773055,3.5757085747750464e-07,2.586967739300919
1523337407.7595184,3.570639883054135e-07,2.587005118577776
1525148263.8417313,3.565571191333224e-07,2.5870424978546334
1526959119.923944,3.560502499612313e-07,2.5870798771314902
1528769976.006157,3.555433807891402e-07,2.5871172564083476
1530580832.0883698,3.550365116170491e-07,2.587154635685205
1532391688.1705828,3.5452964244495796e-07,2.5871920149620617
1534202544.2527957,3.540227732728669e-07,2.587229394238919
1536013400.3350084,3.535159041007758e-07,2.587266773515776
1537824256.4172213,3.530090349286847e-07,2.5873041527926333
1539635112.499434,3.525021657565937e-07,2.5873415320694906
1541445968.581647,3.5199529658450256e-07,2.5873789113463475
1543256824.6638598,3.5148842741241144e-07,2.5874162906232048
1545067680.7460728,3.509815582403203e-07,2.5874536699000616
1546878536.8282857,3.504746890682292e-07,2.587491049176919
1548689392.9104986,3.499678198961381e-07,2.5875284284537763
1550500248.9927113,3.4946095072404706e-07,2.587565807730633
1552311105.0749242,3.4895408155195594e-07,2.5876031870074905
1554121961.157137,3.4844721237986487e-07,2.5876405662843474
1555932817.2393498,3.4794034320777375e-07,2.5876779455612047
1557743673.3215628,3.474334740356826e-07,2.587715324838062
1559554529.4037757,3.469266048635915e-07,2.587752704114919
1561365385.4859886,3.464197356915004e-07,2.587790083391776
1563176241.5682015,3.4591286651940926e-07,2.587827462668633
1564987097.6504142,3.454059973473182e-07,2.5878648419454904
1566797953.7326272,3.4489912817522707e-07,2.5879022212223473
1568608809.8148398,3.4439225900313605e-07,2.5879396004992046
1570419665.8970528,3.4388538983104493e-07,2.587976979776062
1572230521.9792657,3.433785206589538e-07,2.5880143590529188
1574041378.0614786,3.428716514868627e-07,2.588051738329776
1575852234.1436915,3.4236478231477156e-07,2.588089117606633
1577663090.2259045,3.4185791314268044e-07,2.5881264968834903
1579473946.3081172,3.413510439705894e-07,2.5881638761603476
1581284802.39033,3.408441747984983e-07,2.5882012554372045
1583095658.472543,3.403373056264072e-07,2.588238634714062
1584906514.5547557,3.398304364543161e-07,2.5882760139909187
1586717370.6369686,3.3932356728222504e-07,2.588313393267776
1588528226.7191815,3.388166981101339e-07,2.5883507725446333
1590339082.8013945,3.383098289380428e-07,2.58838815182149
1592149938.8836074,3.378029597659517e-07,2.5884255310983475
1593960794.9658203,3.3729609059386056e-07,2.5884629103752044
1595771651.048033,3.367892214217695e-07,2.5885002896520617
1597582507.130246,3.3628235224967837e-07,2.5885376689289186
1599393363.2124586,3.357754830775873e-07,2.588575048205776
1601204219.2946715,3.352686139054962e-07,2.588612427482633
1603015075.3768845,3.3476174473340505e-07,2.58864980675949
